=======================================01H===========================================
读一个线圈
[Test1-1]
request =01 01 00 00 00 01 fd ca
requestlen =8
response =01 01 01 01 90 48
responselen =6
return =0

错误的地址读线圈
[Test1-2]
request =01 01 00 02 00 0a 1d cD
requestlen =8
response =01 81 02 c1 91
responselen =5
return =-49

0地址读2000个
[Test1-3]
request =01 01 00 00 07 d0 3f a6
requestlen =8
response =01 01 fa 00 00 00 00 00 00 00 00 00 00 00 00 00 00 00 00 00 00 00 00 00 00 00 00 00 00 00 00 00 00 00 00 00 00 00 00 00 00 00 00 00 00 00 00 00 00 00 00 00 00 00 00 00 00 00 00 00 00 00 00 00 00 00 00 00 00 00 00 00 00 00 00 00 00 00 00 00 00 00 00 00 00 00 00 00 00 00 00 00 00 00 00 00 00 00 00 00 00 00 00 00 00 00 00 00 00 00 00 00 00 00 00 00 00 00 00 00 00 00 00 00 00 00 00 00 00 00 00 00 00 00 00 00 00 00 00 00 00 00 00 00 00 00 00 00 00 00 00 00 00 00 00 00 00 00 00 00 00 00 00 00 00 00 00 00 00 00 00 00 00 00 00 00 00 00 00 00 00 00 00 00 00 00 00 00 00 00 00 00 00 00 00 00 00 00 00 00 00 00 00 00 00 00 00 00 00 00 00 00 00 00 00 00 00 00 00 00 00 00 00 00 00 00 00 00 00 00 00 00 00 00 00 00 00 00 00 00 00 00 00 00 00 00 00 00 00 00 00 00 00 f5 af
responselen =6
return =0

错误的地址读线圈且返回的crc不正确
[Test1-4]
request =01 01 00 02 00 0a 1d cD
requestlen =8
response =01 81 02 c1 00
responselen =5
return =-48

返回的不是功能码也不是异常码
[Test1-5]
request =01 01 00 02 00 0a 1d cD
requestlen =8
response =01 21 02 B9 91
responselen =5
return =-43

错误的从机地址
[Test1-6]
request =01 01 00 02 00 0a 1d cd
requestlen =8
response =02 01 02 50 51
responselen =5
return =-42

响应错误的字节数
[Test1-7]
request =01 01 00 02 00 0a 1d cd
requestlen =8
response =01 01 01 11 91 84
responselen =5
return =-47

响应的crc错误
[Test1-8]
request =01 01 00 00 00 01 fd ca
requestlen =8
response =01 01 01 01 90 40
responselen =6
return =-48

响应使用不存在的错误码
[Test1-9]
request =01 01 00 02 00 0a 1d cD
requestlen =8
response =01 81 05 80 53
responselen =5
return =-50

=======================================01H===========================================







=======================================03H===========================================
读一个寄存器
[Test2-1]
request =01 03 00 02 00 01 25 ca
requestlen =8
response =01 03 02 00 02 39 85
responselen =7
return =0

错误的地址读寄存器
[Test2-2]
request =01 03 00 64 00 01 c5 d5
requestlen =8
response =01 83 02 c0 f1
responselen =5
return =-49

响应从机地址错误
[Test2-3]
request =01 03 00 02 00 01 25 ca
requestlen =8
response =02 03 02 00 02 39 85
responselen =7
return =-42

响应功能码错误
[Test2-4]
request =01 03 00 02 00 01 25 ca
requestlen =8
response =01 04 02 00 02 39 85
responselen =7
return =-43

响应异常码的crc错误
[Test2-5]
request =01 03 00 02 00 01 25 ca
requestlen =8
response =01 03 02 00 02 39 80
responselen =7
return =-48

响应byte错误
[Test2-6]
request =01 03 00 00 00 01 25 ca
requestlen =8
response =01 03 04 00 02 00 01 9A 33
responselen =7
return =-47

读125个寄存器
[Test2-7]
request =01 03 00 0A 00 7D A5 E9
requestlen =8
response =01 03 FA 00 00 00 00 00 00 00 00 00 00 00 00 00 00 00 00 00 00 00 00 00 00 00 00 00 00 00 00 00 00 00 00 00 00 00 00 00 00 00 00 00 00 00 00 00 00 00 00 00 00 00 00 00 00 00 00 00 00 00 00 00 00 00 00 00 00 00 00 00 00 00 00 00 00 00 00 00 00 00 00 00 00 00 00 00 00 00 00 00 00 00 00 00 00 00 00 00 00 00 00 00 00 00 00 00 00 00 00 00 00 00 00 00 00 00 00 00 00 00 00 00 00 00 00 00 00 00 00 00 00 00 00 00 00 00 00 00 00 00 00 00 00 00 00 00 00 00 00 00 00 00 00 00 00 00 00 00 00 00 00 00 00 00 00 00 00 00 00 00 00 00 00 00 00 00 00 00 00 00 00 00 00 00 00 00 00 00 00 00 00 00 00 00 00 00 00 00 00 00 00 00 00 00 00 00 00 00 00 00 00 00 00 00 00 00 00 00 00 00 00 00 00 00 00 00 00 00 00 00 00 00 00 00 00 00 00 00 00 00 00 00 00 00 00 00 00 00 00 00 00 08 E8
responselen =7
return =0

响应异常码但是code吧不存在
[Test2-8]
request =01 03 00 64 00 01 c5 d5
requestlen =8
response =01 83 09 81 36 
responselen =5
return =-50

响应crc错误
[Test2-9]
request =01 03 00 02 00 01 25 ca
requestlen =8
response =01 03 02 00 02 39 80
responselen =7
return =-48


=======================================03H===========================================







=======================================0fH===========================================
写一个线圈
[Test3-1]
request =01 0f 00 00 00 01 01 00 2e 97
requestlen =10
response =01 0f 00 00 00 01 94 0b
responselen =8
return =0

响应的起始地址错误
[Test3-2]
request =01 0f 00 00 00 01 01 00 2e 97
requestlen =10
response =01 0F 00 01 00 01 C5 CB
responselen =8
return =-44

响应的数量错误
[Test3-3]
request =01 0f 00 00 00 01 01 00 2e 97
requestlen =10
response =01 0F 00 00 00 02 D4 0A
responselen =8
return =-45

响应的从机地址错误
[Test3-4]
request =01 0f 00 00 00 01 01 00 2e 97
requestlen =10
response =00 0f 00 00 00 01 94 0b
responselen =8
return =-42

响应的功能码错误
[Test3-5]
request =01 0f 00 00 00 01 01 00 2e 97
requestlen =10
response =01 0a 00 00 00 01 94 0b
responselen =8
return =-43

响应为异常码
[Test3-6]
request =01 0f 00 00 00 01 01 01 ef 57
requestlen =10
response =01 8F 02 C5 F1 
responselen =8
return =-49

响应为异常码但是crc错误
[Test3-7]
request =01 0f 00 00 00 01 01 01 ef 57
requestlen =10
response =01 8F 02 C5 F0 
responselen =8
return =-48


响应为异常码但是code错误
[Test3-8]
request =01 0f 00 00 00 01 01 01 ef 57
requestlen =10
response =01 8F 09 84 36
responselen =8
return =-50

响应的crc错误
[Test3-9]
request =01 0f 00 00 00 01 01 00 2e 97
requestlen =10
response =01 0f 00 00 00 01 94 0d
responselen =8
return =-48

响应的数量错误
[Test3-10]
request =01 0f 00 00 00 01 01 00 2e 97
requestlen =10
response =01 0F 00 00 00 02 D4 0A
responselen =8
return =-45

写160个线圈
[Test3-11]
request =01 0F 00 0A 00 A0 14 01 02 03 04 05 06 07 08 09 0A 0B 0C 0D 0E 0F 10 11 12 13 14 EA FC
requestlen =10
response =01 0F 00 0A 00 A0 75 B1
responselen =8
return =0

9999地址写一个
[Test3-12]
request =01 0F 27 0F 00 01 01 01 BD 81
requestlen =10
response =01 0F 27 0F 00 01 AE BC
responselen =8
return =0

=======================================0fH===========================================






=======================================10H===========================================
写一个寄存器
[Test4-1]
request =01 10 00 02 00 01 02 00 02 26 73
requestlen =8
response =01 10 00 02 00 01 a0 09
responselen =7
return =0

写很多个寄存器


响应的slave错误
[Test4-3]
request =01 10 00 02 00 01 02 00 02 26 73
requestlen =8
response =00 10 00 02 00 01 A1 D8
responselen =7
return =-42

响应的功能码错误
[Test4-4]
request =01 10 00 02 00 01 02 00 02 26 73
requestlen =8
response =01 11 00 02 00 01 9D C9
responselen =7
return =-43


响应为异常码
[Test4-5]
request =01 10 00 02 00 01 02 00 02 26 73
requestlen =8
response =01 90 02 CD C1
responselen =7
return =-49


响应为异常码但是crc错误
[Test4-6]
request =01 10 00 02 00 01 02 00 02 26 73
requestlen =8
response =01 90 02 CD CC
responselen =7
return =-48

响应为异常码但是不存在差错码
[Test4-7]
request =01 10 00 02 00 01 02 00 02 26 73
requestlen =8
response =01 90 09 8C 06
responselen =7
return =-50

响应的crc有错误
[Test4-8]
request =01 10 00 02 00 01 02 00 02 26 73
requestlen =8
response =01 10 00 02 00 01 a0 09
responselen =7
return =0

响应的起始地址有错误
[Test4-9]
request =01 10 00 02 00 01 02 00 02 26 73
requestlen =8
response =01 10 00 01 00 01 50 09
responselen =7
return =-44


响应的count有错误
[Test4-10]
request =01 10 00 02 00 01 02 00 02 26 73
requestlen =8
response =01 10 00 02 00 02 E0 08
responselen =7
return =-45


写很多个寄存器
[Test4-11]
request =01 10 00 0A 00 7B F6 00 01 00 02 00 03 00 04 00 05 00 06 00 07 00 08 00 09 00 0A 00 01 00 02 00 03 00 04 00 05 00 06 00 07 00 08 00 09 00 0A 00 01 00 02 00 03 00 04 00 05 00 06 00 07 00 08 00 09 00 0A 00 01 00 02 00 03 00 04 00 05 00 06 00 07 00 08 00 09 00 0A 00 01 00 02 00 03 00 04 00 05 00 06 00 07 00 08 00 09 00 0A 00 01 00 02 00 03 00 04 00 05 00 06 00 07 00 08 00 09 00 0A 00 01 00 02 00 03 00 04 00 05 00 06 00 07 00 08 00 09 00 0A 00 01 00 02 00 03 00 04 00 05 00 06 00 07 00 08 00 09 00 0A 00 01 00 02 00 03 00 04 00 05 00 06 00 07 00 08 00 09 00 0A 00 01 00 02 00 03 00 04 00 05 00 06 00 07 00 08 00 09 00 0A 00 01 00 02 00 03 00 04 00 05 00 06 00 07 00 08 00 09 00 0A 00 01 00 02 00 03 00 04 00 05 00 06 00 07 00 08 00 09 00 0A 00 01 00 02 00 03 D0 A2
requestlen =8
response =01 10 00 0A 00 7B A0 28
responselen =7
return =0










=======================================10H===========================================